Sample in Buffer,Sample in Window,TRIGGER,trig[1:0],rxdatak[3:0],rxdata[31:0],DETECT/Q[1:0]
0,0,0,0,3,0000fe1c,0
1,1,0,0,2,00007c1b,0
2,2,0,0,0,000010dd,0
3,3,0,0,3,0000fedc,0
4,4,0,0,2,0000fed8,0
5,5,0,0,2,0000fe87,0
6,6,0,0,2,0000fe4e,0
7,7,0,0,0,0000b582,0
8,8,0,0,3,0000fefe,0
9,9,0,0,0,00004875,0
10,10,0,0,2,0000fed9,0
11,11,0,0,2,0000fee1,0
12,12,0,0,1,0000c4fe,0
13,13,0,0,1,000013fe,0
14,14,0,0,1,0000bcfe,0
15,15,0,0,0,00007a82,0
16,16,0,0,2,0000fe38,0
17,17,0,0,3,0000fedc,0
18,18,0,0,3,0000fefe,0
19,19,0,0,2,0000fe81,0
20,20,0,0,1,000092fe,0
21,21,0,0,1,000000fe,0
22,22,0,0,0,0000fe9d,0
23,23,0,0,3,0000fefe,0
24,24,0,0,2,0000fe5e,0
25,25,0,0,0,00004dc0,0
26,26,0,0,3,0000fefe,0
27,27,0,0,0,00002b19,0
28,28,0,0,0,0000cc83,0
29,29,0,0,0,00008a0d,0
30,30,0,0,0,00009880,0
31,31,0,0,0,00002b1c,0
32,32,0,0,1,000001fe,0
33,33,0,0,2,0000fef1,0
34,34,0,0,1,00008cfe,0
35,35,0,0,0,0000ea12,0
36,36,0,0,1,0000d8fe,0
37,37,0,0,2,0000fe78,0
38,38,0,0,1,0000f8fe,0
39,39,0,0,2,0000feec,0
40,40,0,0,3,0000fefe,0
41,41,0,0,3,0000fefe,0
42,42,0,0,2,0000fe1e,0
43,43,0,0,1,00005afe,0
44,44,0,0,0,00001a1c,0
45,45,0,0,0,0000000b,0
46,46,0,0,2,0000feec,0
47,47,0,0,2,0000fe89,0
48,48,0,0,1,0000d4fe,0
49,49,0,0,0,00007142,0
50,50,0,0,2,0000fe3f,0
51,51,0,0,2,0000fe21,0
52,52,0,0,3,0000fefe,0
53,53,0,0,2,0000feeb,0
54,54,0,0,1,0000c2fe,0
55,55,0,0,3,0000fefe,0
56,56,0,0,3,0000fefe,0
57,57,0,0,1,000016fe,0
58,58,0,0,3,0000fefe,0
59,59,0,0,3,0000fefe,0
60,60,0,0,3,0000fefe,0
61,61,0,0,1,000097fe,0
62,62,0,0,2,0000fe10,0
63,63,0,0,3,0000fefe,0
64,64,0,0,1,000053fe,0
65,65,0,0,2,0000fee9,0
66,66,0,0,3,0000fefe,0
67,67,0,0,0,000021be,0
68,68,0,0,0,0000b110,0
69,69,0,0,3,0000fefe,0
70,70,0,0,1,00002dfe,0
71,71,0,0,3,0000fefe,0
72,72,0,0,0,0000f7b0,0
73,73,0,0,0,0000d828,0
74,74,0,0,0,0000cd31,0
75,75,0,0,1,00009fdc,0
76,76,0,0,1,0000ebfe,0
77,77,0,0,0,0000e5f2,0
78,78,0,0,2,0000fe75,0
79,79,0,0,1,000047fe,0
80,80,0,0,0,00001099,0
81,81,0,0,2,0000fe93,0
82,82,0,0,2,0000fe0c,0
83,83,0,0,2,0000fe9e,0
84,84,0,0,3,0000fefe,0
85,85,0,0,0,0000d814,0
86,86,0,0,2,0000feed,0
87,87,0,0,3,0000fefe,0
88,88,0,0,1,00004dfe,0
89,89,0,0,3,0000fefe,0
90,90,0,0,2,0000fea3,0
91,91,0,0,3,0000fefe,0
92,92,0,0,2,0000fe5a,0
93,93,0,0,3,0000fefe,0
94,94,0,0,1,00001bfe,0
95,95,0,0,3,0000fe9c,0
96,96,0,0,0,00006469,0
97,97,0,0,0,0000cff4,0
98,98,0,0,1,0000c9fe,0
99,99,0,0,3,0000fefe,0
100,100,0,0,2,00007c82,0
101,101,0,0,3,0000fefe,0
102,102,0,0,0,00006bf9,0
103,103,0,0,3,0000fefe,0
104,104,0,0,2,0000fe3a,0
105,105,0,0,0,00004446,0
106,106,0,0,2,0000feeb,0
107,107,0,0,2,0000fe85,0
108,108,0,0,2,0000fe72,0
109,109,0,0,2,0000fedd,0
110,110,0,0,3,0000fefe,0
111,111,0,0,0,0000e9d0,0
112,112,0,0,2,0000fe39,0
113,113,0,0,3,0000fefe,0
114,114,0,0,0,00001bf3,0
115,115,0,0,1,0000e8fe,0
116,116,0,0,3,0000bcfe,0
117,117,0,0,2,0000fe4f,0
118,118,0,0,1,000083fe,0
119,119,0,0,1,0000c9fe,0
120,120,0,0,1,00001ffe,0
121,121,0,0,0,00003d21,0
122,122,0,0,3,0000fe3c,0
123,123,0,0,3,0000fefe,0
124,124,0,0,3,0000fefe,0
125,125,0,0,2,0000fef7,0
126,126,0,0,1,00000afe,0
127,127,0,0,0,0000981b,0
128,128,0,0,2,0000fec8,0
129,129,0,0,2,0000fe24,0
130,130,0,0,2,0000fe5a,0
131,131,0,0,2,0000fe0b,0
132,132,0,0,3,0000fefe,0
133,133,0,0,0,0000c44d,0
134,134,0,0,0,0000824d,0
135,135,0,0,1,0000e5fe,0
136,136,0,0,0,0000a481,0
137,137,0,0,0,00008ce9,0
138,138,0,0,1,000088fe,0
139,139,0,0,2,0000f728,0
140,140,0,0,1,000078fe,0
141,141,0,0,3,0000fefe,0
142,142,0,0,2,0000fef9,0
143,143,0,0,0,0000eecf,0
144,144,0,0,3,0000fefe,0
145,145,0,0,0,00007b03,0
146,146,0,0,3,0000fcfe,0
147,147,0,0,1,0000dffe,0
148,148,0,0,3,0000fdfe,0
149,149,0,0,3,0000fefe,0
150,150,0,0,2,0000fe4b,0
151,151,0,0,3,0000fefe,0
152,152,0,0,3,0000fefe,0
153,153,0,0,2,0000fe70,0
154,154,0,0,0,00000e40,0
155,155,0,0,0,0000f0ed,0
156,156,0,0,0,0000a8e8,0
157,157,0,0,0,000002cf,0
158,158,0,0,3,0000fefe,0
159,159,0,0,2,0000fe1e,0
160,160,0,0,1,000076fe,0
161,161,0,0,1,0000ddfe,0
162,162,0,0,3,0000fefe,0
163,163,0,0,2,0000fe70,0
164,164,0,0,0,000005cd,0
165,165,0,0,3,0000fefe,0
166,166,0,0,2,0000fea4,0
167,167,0,0,1,0000b6fe,0
168,168,0,0,1,000009fe,0
169,169,0,0,3,0000fefe,0
170,170,0,0,0,0000993b,0
171,171,0,0,1,0000a6fe,0
172,172,0,0,3,0000fefb,0
173,173,0,0,0,000059e4,0
174,174,0,0,3,0000fefe,0
175,175,0,0,3,0000fefe,0
176,176,0,0,3,0000fefe,0
177,177,0,0,2,0000fe4e,0
178,178,0,0,3,0000fefe,0
179,179,0,0,3,0000fefe,0
180,180,0,0,0,0000fe76,0
181,181,0,0,3,0000fefe,0
182,182,0,0,2,0000fe98,0
183,183,0,0,2,0000fe36,0
184,184,0,0,2,0000fe9e,0
185,185,0,0,3,0000fefe,0
186,186,0,0,0,00008b67,0
187,187,0,0,3,0000fefe,0
188,188,0,0,3,0000fefe,0
189,189,0,0,3,0000fefe,0
190,190,0,0,1,0000cbfe,0
191,191,0,0,3,0000fefe,0
192,192,0,0,1,000063fe,0
193,193,0,0,1,0000c0fe,0
194,194,0,0,2,0000fe1e,0
195,195,0,0,3,0000fefe,0
196,196,0,0,3,0000fefe,0
197,197,0,0,1,0000a8fe,0
198,198,0,0,3,0000fef7,0
199,199,0,0,1,00000dfe,0
200,200,0,0,1,000011fe,0
201,201,0,0,3,0000bcfe,0
202,202,0,0,0,00003923,0
203,203,0,0,1,00006ffe,0
204,204,0,0,3,0000fefe,0
205,205,0,0,3,00007cfe,0
206,206,0,0,0,00006d2c,0
207,207,0,0,1,000056fe,0
208,208,0,0,3,0000fefe,0
209,209,0,0,1,0000f5fe,0
210,210,0,0,1,000024fe,0
211,211,0,0,2,0000fed2,0
212,212,0,0,3,0000fefe,0
213,213,0,0,2,0000fe6c,0
214,214,0,0,2,0000fede,0
215,215,0,0,3,0000fefe,0
216,216,0,0,0,00004013,0
217,217,0,0,1,000062fe,0
218,218,0,0,0,0000d790,0
219,219,0,0,1,000054fe,0
220,220,0,0,3,0000dcfe,0
221,221,0,0,3,0000bcfe,0
222,222,0,0,3,0000fefe,0
223,223,0,0,1,00003efe,0
224,224,0,0,0,0000d850,0
225,225,0,0,2,0000fe8f,0
226,226,0,0,3,0000fefe,0
227,227,0,0,1,0000d5fe,0
228,228,0,0,1,00000ffe,0
229,229,0,0,1,000089fe,0
230,230,0,0,3,0000fefe,0
231,231,0,0,3,0000fefe,0
232,232,0,0,2,0000fe12,0
233,233,0,0,1,000096fe,0
234,234,0,0,0,0000f88d,0
235,235,0,0,2,0000fe7b,0
236,236,0,0,0,0000740f,0
237,237,0,0,2,0000fe5c,0
238,238,0,0,1,00007ffe,0
239,239,0,0,2,0000fe41,0
240,240,0,0,1,000025fe,0
241,241,0,0,2,0000fea9,0
242,242,0,0,1,00009efe,0
243,243,0,0,0,000042fb,0
244,244,0,0,1,0000affe,0
245,245,0,0,1,000078fe,0
246,246,0,0,3,0000fefc,0
247,247,0,0,1,00005afe,0
248,248,0,0,3,0000fefe,0
249,249,0,0,1,0000f0fe,0
250,250,0,0,1,000070fe,0
251,251,0,0,2,00003cf4,0
252,252,0,0,2,0000fde2,0
253,253,0,0,1,0000a1fe,0
254,254,0,0,1,000039fe,0
255,255,0,0,3,0000fefe,0
256,256,0,0,1,000022fe,0
257,257,0,0,0,0000605c,0
258,258,0,0,2,00009ce4,0
259,259,0,0,0,00005b1e,0
260,260,0,0,2,0000fe7a,0
261,261,0,0,3,0000fe9c,0
262,262,0,0,1,0000e1fe,0
263,263,0,0,1,000096fe,0
264,264,0,0,0,00000d1f,0
265,265,0,0,1,0000e3fe,0
266,266,0,0,0,00000299,0
267,267,0,0,3,0000fefe,0
268,268,0,0,1,0000ebfe,0
269,269,0,0,1,000023fe,0
270,270,0,0,3,0000fefe,0
271,271,0,0,2,0000fe93,0
272,272,0,0,3,0000fefe,0
273,273,0,0,1,00002ffe,0
274,274,0,0,1,00006ffe,0
275,275,0,0,1,0000a4fe,0
276,276,0,0,3,0000fefe,0
277,277,0,0,3,0000fefe,0
278,278,0,0,0,0000f9f0,0
279,279,0,0,2,0000feba,0
280,280,0,0,2,0000fef0,0
281,281,0,0,1,0000ebfe,0
282,282,0,0,3,0000fefe,0
283,283,0,0,1,00002bfe,0
284,284,0,0,1,00007efe,0
285,285,0,0,3,0000fefe,0
286,286,0,0,3,0000fefe,0
287,287,0,0,0,0000993b,0
288,288,0,0,2,0000fee7,0
289,289,0,0,3,0000fefe,0
290,290,0,0,0,0000b312,0
291,291,0,0,2,0000feed,0
292,292,0,0,3,0000fefe,0
293,293,0,0,2,0000fe28,0
294,294,0,0,2,0000fed0,0
295,295,0,0,2,0000feed,0
296,296,0,0,1,000019fe,0
297,297,0,0,2,0000fe5d,0
298,298,0,0,0,00000610,0
299,299,0,0,3,0000fefe,0
300,300,0,0,1,000056fe,0
301,301,0,0,1,000017fe,0
302,302,0,0,1,00009bdc,0
303,303,0,0,2,0000fedf,0
304,304,0,0,2,0000fee2,0
305,305,0,0,2,0000fe42,0
306,306,0,0,2,0000fec0,0
307,307,0,0,1,000058fe,0
308,308,0,0,0,00005999,0
309,309,0,0,3,0000fefe,0
310,310,0,0,3,0000fefe,0
311,311,0,0,1,000069fe,0
312,312,0,0,0,000061cf,0
313,313,0,0,3,0000fefe,0
314,314,0,0,1,00000ffe,0
315,315,0,0,3,0000fefe,0
316,316,0,0,1,000084fe,0
317,317,0,0,3,0000fefe,0
318,318,0,0,2,0000fea2,0
319,319,0,0,3,0000fefe,0
320,320,0,0,1,000087fe,0
321,321,0,0,3,0000fefe,0
322,322,0,0,3,0000fefe,0
323,323,0,0,1,00000cfe,0
324,324,0,0,3,0000fefe,0
325,325,0,0,1,0000d8fe,0
326,326,0,0,2,0000fec0,0
327,327,0,0,0,00007088,0
328,328,0,0,3,0000fefe,0
329,329,0,0,1,000050fe,0
330,330,0,0,0,00003781,0
331,331,0,0,2,0000fe17,0
332,332,0,0,3,0000fefe,0
333,333,0,0,2,0000fe28,0
334,334,0,0,0,00003d90,0
335,335,0,0,2,0000fe5f,0
336,336,0,0,3,0000fefe,0
337,337,0,0,0,0000a47a,0
338,338,0,0,1,000056fe,0
339,339,0,0,3,0000fefe,0
340,340,0,0,2,0000fe74,0
341,341,0,0,0,0000cb94,0
342,342,0,0,1,000092fe,0
343,343,0,0,2,0000fe47,0
344,344,0,0,1,0000d3fe,0
345,345,0,0,0,0000271a,0
346,346,0,0,2,0000feb0,0
347,347,0,0,3,0000fefe,0
348,348,0,0,3,0000fefe,0
349,349,0,0,3,0000fefe,0
350,350,0,0,3,0000fefe,0
351,351,0,0,0,00000d18,0
352,352,0,0,0,00004e64,0
353,353,0,0,2,0000fe77,0
354,354,0,0,1,0000fcfe,0
355,355,0,0,3,0000fefe,0
356,356,0,0,1,0000cbfe,0
357,357,0,0,2,0000fee3,0
358,358,0,0,1,00007a1c,0
359,359,0,0,1,0000c4fe,0
360,360,0,0,0,000014a7,0
361,361,0,0,2,0000fee2,0
362,362,0,0,2,00007ce4,0
363,363,0,0,2,0000fe80,0
364,364,0,0,3,0000fefe,0
365,365,0,0,1,000037fe,0
366,366,0,0,2,0000fe22,0
367,367,0,0,1,0000adfe,0
368,368,0,0,3,0000fefe,0
369,369,0,0,0,0000fa96,0
370,370,0,0,3,0000fefe,0
371,371,0,0,2,0000feae,0
372,372,0,0,0,00002298,0
373,373,0,0,2,00001ce9,0
374,374,0,0,0,00006500,0
375,375,0,0,0,00009269,0
376,376,0,0,3,0000fefe,0
377,377,0,0,1,00007afe,0
378,378,0,0,1,000027fe,0
379,379,0,0,1,000093fe,0
380,380,0,0,1,000001fe,0
381,381,0,0,3,0000fefe,0
382,382,0,0,1,000076fe,0
383,383,0,0,0,0000307d,0
384,384,0,0,2,0000fe18,0
385,385,0,0,3,0000fefe,0
386,386,0,0,3,0000fe9c,0
387,387,0,0,2,0000fe22,0
388,388,0,0,0,00003a6c,0
389,389,0,0,2,0000fe5c,0
390,390,0,0,0,0000d58d,0
391,391,0,0,3,0000fefe,0
392,392,0,0,2,0000fe7b,0
393,393,0,0,2,0000fe6d,0
394,394,0,0,1,000059fe,0
395,395,0,0,1,0000115c,0
396,396,0,0,1,000083fe,0
397,397,0,0,1,0000affe,0
398,398,0,0,3,0000fefe,0
399,399,0,0,1,000048fe,0
400,400,0,0,0,0000a00a,0
401,401,0,0,2,0000fed0,0
402,402,0,0,2,0000fe8b,0
403,403,0,0,1,000057fe,0
404,404,0,0,1,000009fe,0
405,405,0,0,3,0000fefe,0
406,406,0,0,0,0000916c,0
407,407,0,0,0,0000f1cb,0
408,408,0,0,2,0000fe9c,0
409,409,0,0,0,0000cc0d,0
410,410,0,0,3,0000fefe,0
411,411,0,0,0,0000a7d1,0
412,412,0,0,2,0000fea7,0
413,413,0,0,2,0000fe60,0
414,414,0,0,1,000085fe,0
415,415,0,0,2,0000fec4,0
416,416,0,0,2,0000fe0d,0
417,417,0,0,3,0000fefe,0
418,418,0,0,2,0000fee0,0
419,419,0,0,2,0000fe0f,0
420,420,0,0,0,0000be20,0
421,421,0,0,2,0000fed8,0
422,422,0,0,0,00000283,0
423,423,0,0,0,00002ec3,0
424,424,0,0,2,0000feef,0
425,425,0,0,2,0000fe5f,0
426,426,0,0,1,000037fe,0
427,427,0,0,0,00000e56,0
428,428,0,0,2,0000fe21,0
429,429,0,0,1,0000edfe,0
430,430,0,0,0,0000f658,0
431,431,0,0,1,00000dfe,0
432,432,0,0,2,0000fed3,0
433,433,0,0,3,0000fefb,0
434,434,0,0,2,0000fed7,0
435,435,0,0,2,0000fe0d,0
436,436,0,0,1,000082fe,0
437,437,0,0,0,000022ea,0
438,438,0,0,2,00007c98,0
439,439,0,0,1,0000a1fe,0
440,440,0,0,0,000052d8,0
441,441,0,0,1,00009bfe,0
442,442,0,0,0,00001431,0
443,443,0,0,1,0000ea9c,0
444,444,0,0,1,000090fe,0
445,445,0,0,0,00001acb,0
446,446,0,0,0,00007997,0
447,447,0,0,3,0000fefe,0
448,448,0,0,1,00008cfe,0
449,449,0,0,2,0000fee5,0
450,450,0,0,2,0000fe6b,0
451,451,0,0,0,0000619d,0
452,452,0,0,1,00005dfe,0
453,453,0,0,3,0000fefe,0
454,454,0,0,1,0000fffe,0
455,455,0,0,2,0000fe7a,0
456,456,0,0,3,0000fefe,0
457,457,0,0,3,0000fefe,0
458,458,0,0,0,00006022,0
459,459,0,0,2,0000fe8e,0
460,460,0,0,2,0000fe02,0
461,461,0,0,2,0000fe48,0
462,462,0,0,3,0000fefe,0
463,463,0,0,3,0000fefe,0
464,464,0,0,3,0000fefe,0
465,465,0,0,3,0000fefe,0
466,466,0,0,0,000017e8,0
467,467,0,0,3,0000fefe,0
468,468,0,0,1,0000d1fe,0
469,469,0,0,3,0000fefe,0
470,470,0,0,3,0000fefe,0
471,471,0,0,2,0000fe87,0
472,472,0,0,0,00007409,0
473,473,0,0,0,00002c68,0
474,474,0,0,1,000094fe,0
475,475,0,0,0,0000e821,0
476,476,0,0,0,000084fb,0
477,477,0,0,3,0000fefe,0
478,478,0,0,0,000019d9,0
479,479,0,0,2,0000fe58,0
480,480,0,0,1,000071fe,0
481,481,0,0,2,0000fe26,0
482,482,0,0,2,0000feb7,0
483,483,0,0,1,0000ecfe,0
484,484,0,0,0,00007684,0
485,485,0,0,1,00004dfe,0
486,486,0,0,0,00005138,0
487,487,0,0,0,000068da,0
488,488,0,0,1,0000e1fe,0
489,489,0,0,3,0000fefe,0
490,490,0,0,3,0000fefe,0
491,491,0,0,2,0000fe29,0
492,492,0,0,1,00001cfe,0
493,493,0,0,1,000040fe,0
494,494,0,0,1,000003fe,0
495,495,0,0,0,00001977,0
496,496,0,0,0,00004199,0
497,497,0,0,3,0000fefe,0
498,498,0,0,0,0000c81b,0
499,499,0,0,3,0000fefe,0
500,500,0,0,0,00003dc6,0
501,501,0,0,0,00007759,0
502,502,0,0,1,000035fe,0
503,503,0,0,0,00002481,0
504,504,0,0,1,0000f8fe,0
505,505,0,0,3,0000fefe,0
506,506,0,0,2,0000fe1f,0
507,507,0,0,1,000079fe,0
508,508,0,0,0,00005c6b,0
509,509,0,0,0,0000c867,0
510,510,0,0,0,0000195a,0
511,511,0,0,3,0000fefe,0
512,512,0,0,2,0000fe7b,0
513,513,0,0,1,0000c4fe,0
514,514,0,0,0,0000390b,0
515,515,0,0,0,0000a46e,0
516,516,0,0,3,0000fefe,0
517,517,0,0,2,0000fedb,0
518,518,0,0,3,0000fefe,0
519,519,0,0,0,00003852,0
520,520,0,0,2,0000fe3e,0
521,521,0,0,0,000080df,0
522,522,0,0,1,0000cdfe,0
523,523,0,0,3,0000fefe,0
524,524,0,0,1,0000e51c,0
525,525,0,0,0,0000c8ad,0
526,526,0,0,3,0000fefe,0
527,527,0,0,2,00001c91,0
528,528,0,0,1,0000a6fe,0
529,529,0,0,1,0000d8fe,0
530,530,0,0,2,0000fe0a,0
531,531,0,0,2,0000fee3,0
532,532,0,0,0,000073f2,0
533,533,0,0,0,0000a5ed,0
534,534,0,0,1,0000e1fe,0
535,535,0,0,0,0000fb14,0
536,536,0,0,1,000041fe,0
537,537,0,0,2,0000fea3,0
538,538,0,0,3,0000fefe,0
539,539,0,0,3,0000fefe,0
540,540,0,0,3,0000fefe,0
541,541,0,0,1,000073fe,0
542,542,0,0,3,0000fefe,0
543,543,0,0,3,0000fefe,0
544,544,0,0,1,000026fe,0
545,545,0,0,2,0000fe15,0
546,546,0,0,1,00001cfe,0
547,547,0,0,3,0000fefe,0
548,548,0,0,2,0000febb,0
549,549,0,0,1,000090fe,0
550,550,0,0,0,0000870d,0
551,551,0,0,2,0000fe6c,0
552,552,0,0,3,0000fefe,0
553,553,0,0,0,00007a84,0
554,554,0,0,3,0000fefe,0
555,555,0,0,0,0000f382,0
556,556,0,0,0,0000d566,0
557,557,0,0,2,0000fe26,0
558,558,0,0,2,00007cf9,0
559,559,0,0,0,00000aa5,0
560,560,0,0,1,000066fe,0
561,561,0,0,1,000022fe,0
562,562,0,0,0,00001bc0,0
563,563,0,0,1,0000c9fe,0
564,564,0,0,3,0000fefe,0
565,565,0,0,1,000067fe,0
566,566,0,0,3,0000fefe,0
567,567,0,0,0,00007bd8,0
568,568,0,0,1,000068fe,0
569,569,0,0,0,0000df7b,0
570,570,0,0,2,0000fe2c,0
571,571,0,0,2,0000fec8,0
572,572,0,0,0,00005b0e,0
573,573,0,0,1,0000e8fe,0
574,574,0,0,0,0000af9f,0
575,575,0,0,2,0000fe59,0
576,576,0,0,0,00002490,0
577,577,0,0,1,000077fe,0
578,578,0,0,0,00001710,0
579,579,0,0,0,0000e713,0
580,580,0,0,2,0000fe52,0
581,581,0,0,2,0000fe48,0
582,582,0,0,3,0000fefe,0
583,583,0,0,1,000085fe,0
584,584,0,0,0,0000c0b5,0
585,585,0,0,2,0000fe6d,0
586,586,0,0,3,0000fefe,0
587,587,0,0,2,0000fede,0
588,588,0,0,3,0000fefe,0
589,589,0,0,1,0000ddfc,0
590,590,0,0,0,0000211a,0
591,591,0,0,0,00006e5b,0
592,592,0,0,2,0000fe6c,0
593,593,0,0,1,000022fe,0
594,594,0,0,0,000094df,0
595,595,0,0,0,00001cbe,0
596,596,0,0,3,0000fefe,0
597,597,0,0,1,000029fe,0
598,598,0,0,1,0000c5fe,0
599,599,0,0,2,0000fe1a,0
600,600,0,0,3,0000fbfe,0
601,601,0,0,3,00009cfe,0
602,602,0,0,2,0000fe05,0
603,603,0,0,0,00008959,0
604,604,0,0,1,000046fe,0
605,605,0,0,1,00005dfe,0
606,606,0,0,2,0000fe80,0
607,607,0,0,1,00009bfe,0
608,608,0,0,1,000006fe,0
609,609,0,0,0,00003280,0
610,610,0,0,2,0000fe19,0
611,611,0,0,1,00009efe,0
612,612,0,0,1,000004fe,0
613,613,0,0,3,0000fefe,0
614,614,0,0,3,0000fefe,0
615,615,0,0,1,00000cfe,0
616,616,0,0,3,0000fefe,0
617,617,0,0,2,0000fe05,0
618,618,0,0,1,000094fe,0
619,619,0,0,2,0000fed7,0
620,620,0,0,3,0000fefe,0
621,621,0,0,0,00009454,0
622,622,0,0,1,00005ffe,0
623,623,0,0,0,00001eb0,0
624,624,0,0,0,0000caab,0
625,625,0,0,0,0000860b,0
626,626,0,0,2,0000fecb,0
627,627,0,0,1,0000f4fe,0
628,628,0,0,0,00007391,0
629,629,0,0,1,000006fe,0
630,630,0,0,3,0000fefe,0
631,631,0,0,3,0000fefe,0
632,632,0,0,2,0000fef6,0
633,633,0,0,3,0000fefe,0
634,634,0,0,3,0000fefe,0
635,635,0,0,0,000072fc,0
636,636,0,0,3,0000fefe,0
637,637,0,0,0,00008658,0
638,638,0,0,0,0000f4e1,0
639,639,0,0,0,0000e9ec,0
640,640,0,0,0,0000880f,0
641,641,0,0,3,0000fefe,0
642,642,0,0,0,000035e0,0
643,643,0,0,0,0000ffeb,0
644,644,0,0,3,0000fefe,0
645,645,0,0,1,00002afe,0
646,646,0,0,3,0000fefe,0
647,647,0,0,3,0000fefc,0
648,648,0,0,0,00000caf,0
649,649,0,0,2,0000feba,0
650,650,0,0,0,00001e9f,0
651,651,0,0,0,00003e9e,0
652,652,0,0,0,00007601,0
653,653,0,0,0,00002cff,0
654,654,0,0,2,0000fe0c,0
655,655,0,0,2,0000fe80,0
656,656,0,0,2,0000fe62,0
657,657,0,0,2,0000fe25,0
658,658,0,0,0,00004654,0
659,659,0,0,0,0000de1e,0
660,660,0,0,1,0000c8fe,0
661,661,0,0,3,0000febc,0
662,662,0,0,1,00005dfe,0
663,663,0,0,3,0000fefe,0
664,664,0,0,1,00008bfe,0
665,665,0,0,2,0000fe92,0
666,666,0,0,1,0000a1fe,0
667,667,0,0,0,000098eb,0
668,668,0,0,1,000096fe,0
669,669,0,0,2,0000fef3,0
670,670,0,0,1,0000dcfe,0
671,671,0,0,1,0000e0fe,0
672,672,0,0,0,00004605,0
673,673,0,0,2,0000fe86,0
674,674,0,0,3,00009c3c,0
675,675,0,0,1,000062fe,0
676,676,0,0,1,00003afe,0
677,677,0,0,2,0000fe40,0
678,678,0,0,3,0000fefe,0
679,679,0,0,1,000082fe,0
680,680,0,0,2,0000fec7,0
681,681,0,0,1,0000dafe,0
682,682,0,0,2,0000fe30,0
683,683,0,0,1,00008afe,0
684,684,0,0,3,0000fefe,0
685,685,0,0,3,0000fefe,0
686,686,0,0,3,0000fefe,0
687,687,0,0,0,00009356,0
688,688,0,0,2,0000fea0,0
689,689,0,0,0,00000f95,0
690,690,0,0,3,0000fe5c,0
691,691,0,0,0,000050c4,0
692,692,0,0,0,000021a1,0
693,693,0,0,2,0000fed8,0
694,694,0,0,2,0000fe1e,0
695,695,0,0,2,0000fe44,0
696,696,0,0,3,0000fefe,0
697,697,0,0,0,0000bbb4,0
698,698,0,0,1,0000933c,0
699,699,0,0,1,00002ffe,0
700,700,0,0,1,00009cfe,0
701,701,0,0,2,0000fe75,0
702,702,0,0,3,0000fefe,0
703,703,0,0,0,00004203,0
704,704,0,0,2,0000fe9b,0
705,705,0,0,0,0000ba7f,0
706,706,0,0,0,0000c095,0
707,707,0,0,0,00003e0e,0
708,708,0,0,1,000015fe,0
709,709,0,0,3,0000fefd,0
710,710,0,0,0,00001624,0
711,711,0,0,2,0000fcc3,0
712,712,0,0,0,00005d37,0
713,713,0,0,2,0000fe42,0
714,714,0,0,3,0000fefe,0
715,715,0,0,2,0000fe52,0
716,716,0,0,2,0000fe0c,0
717,717,0,0,0,0000d06d,0
718,718,0,0,3,0000fefe,0
719,719,0,0,3,0000fefe,0
720,720,0,0,2,0000fe18,0
721,721,0,0,2,0000dc14,0
722,722,0,0,3,0000fefe,0
723,723,0,0,1,000002fe,0
724,724,0,0,1,0000a4fe,0
725,725,0,0,3,0000fefe,0
726,726,0,0,2,0000fed3,0
727,727,0,0,0,0000d7d4,0
728,728,0,0,3,0000fefe,0
729,729,0,0,2,0000fe55,0
730,730,0,0,2,0000fe6d,0
731,731,0,0,3,0000fefe,0
732,732,0,0,3,0000fefe,0
733,733,0,0,2,0000fe16,0
734,734,0,0,2,0000fef6,0
735,735,0,0,1,00003bfe,0
736,736,0,0,1,00000ffe,0
737,737,0,0,2,0000fe78,0
738,738,0,0,3,0000fefe,0
739,739,0,0,3,0000fefe,0
740,740,0,0,1,000084fe,0
741,741,0,0,0,00004f28,0
742,742,0,0,0,00002219,0
743,743,0,0,3,0000fefe,0
744,744,0,0,2,0000fe38,0
745,745,0,0,0,0000c1af,0
746,746,0,0,1,000098fe,0
747,747,0,0,3,0000fbfe,0
748,748,0,0,1,000015fe,0
749,749,0,0,1,0000c8fe,0
750,750,0,0,1,000036fe,0
751,751,0,0,0,0000f681,0
752,752,0,0,2,0000fe30,0
753,753,0,0,3,0000fefe,0
754,754,0,0,1,000030fe,0
755,755,0,0,2,0000fe9e,0
756,756,0,0,3,0000fefe,0
757,757,0,0,2,0000fec2,0
758,758,0,0,1,00009bfe,0
759,759,0,0,2,0000fe84,0
760,760,0,0,3,0000fefe,0
761,761,0,0,2,0000fe89,0
762,762,0,0,0,000095b3,0
763,763,0,0,3,0000fefe,0
764,764,0,0,3,0000fefe,0
765,765,0,0,1,000068fe,0
766,766,0,0,1,00005ffe,0
767,767,0,0,1,00001ffe,0
768,768,0,0,2,0000fedb,0
769,769,0,0,1,0000b8fe,0
770,770,0,0,2,0000fe7f,0
771,771,0,0,1,00007dfe,0
772,772,0,0,1,0000fbfe,0
773,773,0,0,0,000061d4,0
774,774,0,0,0,0000ff27,0
775,775,0,0,3,0000fefe,0
776,776,0,0,3,0000fefe,0
777,777,0,0,0,00008862,0
778,778,0,0,3,0000fefe,0
779,779,0,0,3,0000fbfe,0
780,780,0,0,1,000019fe,0
781,781,0,0,2,0000fe7a,0
782,782,0,0,1,0000d0fe,0
783,783,0,0,2,0000fe66,0
784,784,0,0,1,00007efe,0
785,785,0,0,2,0000fef8,0
786,786,0,0,3,0000fefe,0
787,787,0,0,3,0000fefe,0
788,788,0,0,2,0000fe0e,0
789,789,0,0,3,0000fefe,0
790,790,0,0,2,0000fe99,0
791,791,0,0,1,0000f0fe,0
792,792,0,0,1,000048fe,0
793,793,0,0,0,00003def,0
794,794,0,0,2,0000fb8d,0
795,795,0,0,1,000092fe,0
796,796,0,0,0,00003167,0
797,797,0,0,1,000090fe,0
798,798,0,0,3,0000fefe,0
799,799,0,0,3,0000fefe,0
800,800,0,0,2,0000fe41,0
801,801,0,0,0,00000437,0
802,802,0,0,2,0000fe7a,0
803,803,0,0,2,0000fe32,0
804,804,0,0,1,0000a8fe,0
